
T12D4 000:175 SEGGER J-Link V4.68a Log File (0001ms, 0175ms total)
T12D4 000:175 DLL Compiled: Apr 12 2013 13:26:50 (0001ms, 0175ms total)
T12D4 000:175 Logging started @ 2016-06-12 11:10 (0001ms, 0175ms total)
T12D4 000:176 JLINK_SetWarnOutHandler(...) (0000ms, 0175ms total)
T12D4 000:176 JLINK_OpenEx(...)
Firmware: J-Link V9 compiled Oct  9 2015 20:34:47
Hardware: V9.20
Feature(s): GDB, RDI, FlashBP, FlashDL, JFlash  returns O.K. (0028ms, 0203ms total)
T12D4 000:204 JLINK_SetErrorOutHandler(...) (0000ms, 0203ms total)
T12D4 000:204 JLINK_ExecCommand("ProjectFile = "D:\WORK\SMART_BIKE\Smart_bikeV1.0\examples\ble_peripheral\ble_app_uart\pca10028\s130\arm4\JLinkSettings.ini"", ...)
                JLINK_AddMirrorAreaEx(Addr = 0x00000000, Size = 0x00000000) (0000ms, 0000ms total)
              Device "UNSPECIFIED" selected (0 KB flash, 0 KB RAM).  returns 0x00 (0002ms, 0205ms total)
T12D4 000:208 JLINK_ExecCommand("Device = nRF51422_xxAC", ...)
                JLINK_AddMirrorAreaEx(Addr = 0x00000000, Size = 0x00000000) (0000ms, 0000ms total)
              Device "UNSPECIFIED" selected (0 KB flash, 0 KB RAM).  returns 0x00 (0002ms, 0207ms total)
T12D4 000:210 JLINK_ExecCommand("DisableConnectionTimeout", ...)  returns 0x00 (0000ms, 0207ms total)
T12D4 000:210 JLINK_GetHardwareVersion()  returns 0x16760 (0000ms, 0207ms total)
T12D4 000:210 JLINK_GetDLLVersion()  returns 46801 (0000ms, 0207ms total)
T12D4 000:210 JLINK_GetFirmwareString(...) (0000ms, 0207ms total)
T12D4 000:214 JLINK_GetDLLVersion()  returns 46801 (0000ms, 0207ms total)
T12D4 000:214 JLINK_GetCompileDateTime() (0000ms, 0207ms total)
T12D4 000:215 JLINK_GetFirmwareString(...) (0000ms, 0207ms total)
T12D4 000:218 JLINK_GetHardwareVersion()  returns 0x16760 (0001ms, 0208ms total)
T12D4 000:227 JLINK_TIF_Select(JLINKARM_TIF_SWD)  returns 0x00 (0005ms, 0213ms total)
T12D4 000:232 JLINK_SetSpeed(2000) (0001ms, 0214ms total)
T12D4 000:233 JLINK_GetId() >0x108 TIF>Found SWD-DP with ID 0x0BB11477 >0x0D TIF> >0x21 TIF> >0x0D TIF> >0x28 TIF> >0x0D TIF> >0x28 TIF> >0x0D TIF> >0x21 TIF> >0x0D TIF> >0x21 TIF> >0x0D TIF> >0x28 TIF> >0x0D TIF> >0x21 TIF> >0x0D TIF> >0x21 TIF> >0x0D TIF> >0x21 TIF> >0x0D TIF> >0x21 TIF> >0x0D TIF> >0x28 TIF> >0x0D TIF> >0x28 TIF> >0x0D TIF> >0x28 TIF> >0x0D TIF> >0x21 TIF> >0x0D TIF> >0x21 TIF> >0x0D TIF> >0x21 TIF> >0x0D TIF> >0x28 TIF> >0x0D TIF> >0x28 TIF> >0x0D TIF> >0x21 TIF> >0x0D TIF>
 >0x21 TIF> >0x0D TIF> >0x28 TIF> >0x0D TIF> >0x21 TIF> >0x0D TIF> >0x21 TIF> >0x0D TIF> >0x28 TIF> >0x0D TIF> >0x28 TIF> >0x0D TIF> >0x28 TIF> >0x0D TIF> >0x21 TIF> >0x0D TIF> >0x21 TIF> >0x0D TIF> >0x28 TIF> >0x0D TIF> >0x28 TIF> >0x0D TIF> >0x28 TIF> >0x0D TIF> >0x21 TIF> >0x0D TIF> >0x21 TIF> >0x0D TIF> >0x21 TIF> >0x0D TIF> >0x28 TIF> >0x0D TIF> >0x21 TIF> >0x0D TIF> >0x21 TIF> >0x0D TIF> >0x28 TIF> >0x0D TIF> >0x21 TIF> >0x0D TIF> >0x21 TIF>FPUnit: 4 code (BP) slots and 0 literal slots >0x0D TIF>
 >0x28 TIF> >0x0D TIF> >0x21 TIF> >0x0D TIF> >0x21 TIF> >0x0D TIF> >0x28 TIF> >0x0D TIF> >0x21 TIF> >0x0D TIF> >0x21 TIF> >0x0D TIF> >0x28 TIF> >0x0D TIF> >0x21 TIF> >0x0D TIF> >0x21 TIF> >0x0D TIF> >0x28 TIF> >0x0D TIF> >0x21 TIF> >0x0D TIF> >0x21 TIF>Found Cortex-M0 r0p0, Little endian. >0x0D TIF> >0x21 TIF>  returns 0x0BB11477 (0125ms, 0339ms total)
T12D4 000:358 JLINK_GetDeviceFamily()  returns 6 (0000ms, 0339ms total)
T12D4 000:362 JLINK_ReadMem (0xE00FFFF0, 0x0010 Bytes, ...) -- CPU is running -- CPU_ReadMem(16 bytes @ 0xE00FFFF0) -- Data:  0D 00 00 00 10 00 00 00 05 00 00 00 B1 00 00 00  returns 0x00 (0002ms, 0341ms total)
T12D4 000:364 JLINK_ReadMem (0xE00FFFD0, 0x0020 Bytes, ...) -- CPU is running -- CPU_ReadMem(32 bytes @ 0xE00FFFD0) -- Data:  04 00 00 00 00 00 00 00 00 00 00 00 00 00 00 00 ...  returns 0x00 (0001ms, 0342ms total)
T12D4 000:365 JLINK_ReadMem (0xE00FF000, 0x0018 Bytes, ...) -- CPU is running -- CPU_ReadMem(24 bytes @ 0xE00FF000) -- Data:  03 F0 F0 FF 03 20 F0 FF 03 30 F0 FF 00 00 00 00 ...  returns 0x00 (0001ms, 0343ms total)
T12D4 000:366 JLINK_ReadMemU32(0xE000ED00, 0x0001 Items, ...) -- CPU is running -- CPU_ReadMem(4 bytes @ 0xE000ED00) -- Data:  00 C2 0C 41  returns 0x01 (0001ms, 0344ms total)
T12D4 000:367 JLINK_SetResetType(JLINKARM_RESET_TYPE_NORMAL)  returns JLINKARM_RESET_TYPE_NORMAL (0000ms, 0344ms total)
T12D4 000:367 JLINK_Reset() -- CPU is running -- CPU_WriteMem(4 bytes @ 0xE000EDF0) -- CPU is running -- CPU_WriteMem(4 bytes @ 0xE000EDFC) >0x35 TIF> -- CPU is running -- CPU_WriteMem(4 bytes @ 0xE000ED0C) -- CPU is running -- CPU_ReadMem(4 bytes @ 0xE000EDF0) -- CPU is running -- CPU_ReadMem(4 bytes @ 0xE000EDF0) -- CPU is running -- CPU_WriteMem(4 bytes @ 0xE000EDF0) -- CPU is running -- CPU_WriteMem(4 bytes @ 0xE000EDFC) -- CPU is running -- CPU_ReadMem(4 bytes @ 0xE000EDF0)
 -- CPU_WriteMem(4 bytes @ 0xE0002000) (0022ms, 0366ms total)
T12D4 000:389 JLINK_Halt()  returns 0x00 (0000ms, 0366ms total)
T12D4 000:389 JLINK_IsHalted()  returns TRUE (0000ms, 0366ms total)
T12D4 000:389 JLINK_ReadMemU32(0xE000EDF0, 0x0001 Items, ...) -- CPU_ReadMem(4 bytes @ 0xE000EDF0) -- Data:  03 00 03 00  returns 0x01 (0001ms, 0367ms total)
T12D4 000:390 JLINK_WriteU32(0xE000EDF0, 0xA05F0003) -- CPU_WriteMem(4 bytes @ 0xE000EDF0)  returns 0x00 (0001ms, 0368ms total)
T12D4 000:391 JLINK_WriteU32(0xE000EDFC, 0x01000000) -- CPU_WriteMem(4 bytes @ 0xE000EDFC)  returns 0x00 (0001ms, 0369ms total)
T12D4 000:400 JLINK_GetHWStatus(...)  returns 0x00 (0001ms, 0370ms total)
T12D4 000:409 JLINK_GetNumBPUnits(Type = 0xFFFFFF00)  returns 0x04 (0000ms, 0370ms total)
T12D4 000:409 JLINK_GetNumBPUnits(Type = 0xF0)  returns 0x2000 (0000ms, 0370ms total)
T12D4 000:409 JLINK_GetNumWPUnits()  returns 0x02 (0000ms, 0370ms total)
T12D4 000:414 JLINK_GetSpeed()  returns 0x7D0 (0000ms, 0370ms total)
T12D4 000:418 JLINK_ReadMemU32(0xE000E004, 0x0001 Items, ...) -- CPU_ReadMem(4 bytes @ 0xE000E004) -- Data:  00 00 00 00  returns 0x01 (0001ms, 0371ms total)
T12D4 000:419 JLINK_Halt()  returns 0x00 (0001ms, 0372ms total)
T12D4 000:420 JLINK_IsHalted()  returns TRUE (0000ms, 0372ms total)
T12D4 000:422 JLINK_WriteMem(0x20000000, 0x0478 Bytes, ...) -- Data:  00 BE 0A E0 0D 78 2D 06 68 40 08 24 40 00 00 D3 ... -- CPU_WriteMem(1144 bytes @ 0x20000000)  returns 0x478 (0009ms, 0381ms total)
T12D4 000:431 JLINK_WriteReg(R0, 0x00000000)  returns 0x00 (0000ms, 0381ms total)
T12D4 000:431 JLINK_WriteReg(R1, 0x00F42400)  returns 0x00 (0000ms, 0381ms total)
T12D4 000:431 JLINK_WriteReg(R2, 0x00000001)  returns 0x00 (0000ms, 0381ms total)
T12D4 000:431 JLINK_WriteReg(R3, 0x00000000)  returns 0x00 (0000ms, 0381ms total)
T12D4 000:431 JLINK_WriteReg(R4, 0x00000000)  returns 0x00 (0000ms, 0381ms total)
T12D4 000:431 JLINK_WriteReg(R5, 0x00000000)  returns 0x00 (0000ms, 0381ms total)
T12D4 000:431 JLINK_WriteReg(R6, 0x00000000)  returns 0x00 (0000ms, 0381ms total)
T12D4 000:431 JLINK_WriteReg(R7, 0x00000000)  returns 0x00 (0000ms, 0381ms total)
T12D4 000:431 JLINK_WriteReg(R8, 0x00000000)  returns 0x00 (0000ms, 0381ms total)
T12D4 000:431 JLINK_WriteReg(R9, 0x20000474)  returns 0x00 (0000ms, 0381ms total)
T12D4 000:431 JLINK_WriteReg(R10, 0x00000000)  returns 0x00 (0000ms, 0381ms total)
T12D4 000:431 JLINK_WriteReg(R11, 0x00000000)  returns 0x00 (0000ms, 0381ms total)
T12D4 000:431 JLINK_WriteReg(R12, 0x00000000)  returns 0x00 (0000ms, 0381ms total)
T12D4 000:431 JLINK_WriteReg(R13, 0x20002000)  returns 0x00 (0000ms, 0381ms total)
T12D4 000:431 JLINK_WriteReg(R14, 0x20000001)  returns 0x00 (0000ms, 0381ms total)
T12D4 000:431 JLINK_WriteReg(R15, 0x20000028)  returns 0x00 (0000ms, 0381ms total)
T12D4 000:431 JLINK_WriteReg(XPSR, 0x01000000)  returns 0x00 (0000ms, 0381ms total)
T12D4 000:431 JLINK_WriteReg(MSP, 0x20002000)  returns 0x00 (0000ms, 0381ms total)
T12D4 000:431 JLINK_WriteReg(PSP, 0x20002000)  returns 0x00 (0000ms, 0381ms total)
T12D4 000:431 JLINK_WriteReg(CFBP, 0x00000000)  returns 0x00 (0000ms, 0381ms total)
T12D4 000:431 JLINK_SetBPEx(Addr = 0x20000000, Type = 0xFFFFFFF2) -- CPU_ReadMem(4 bytes @ 0x20000000) -- CPU_WriteMem(4 bytes @ 0x20000000) -- CPU_ReadMem(4 bytes @ 0x20000000) -- CPU_WriteMem(4 bytes @ 0x20000000) -- CPU_ReadMem(2 bytes @ 0x20000000)  returns 0x00000001 (0005ms, 0386ms total)
T12D4 000:436 JLINK_Go() -- CPU_WriteMem(2 bytes @ 0x20000000) -- CPU_WriteMem(4 bytes @ 0xE0002008) -- CPU_WriteMem(4 bytes @ 0xE000200C) -- CPU_WriteMem(4 bytes @ 0xE0002010) -- CPU_WriteMem(4 bytes @ 0xE0002014) (0009ms, 0395ms total)
T12D4 000:445 JLINK_IsHalted() -- CPU_ReadMem(2 bytes @ 0x20000000)  returns TRUE (0005ms, 0400ms total)
T12D4 000:450 JLINK_ReadReg(R15)  returns 0x20000000 (0000ms, 0395ms total)
T12D4 000:450 JLINK_ClrBPEx(BPHandle = 0x00000001)  returns 0x00 (0000ms, 0395ms total)
T12D4 000:450 JLINK_ReadReg(R0)  returns 0x00000000 (0000ms, 0395ms total)
T12D4 000:451 JLINK_WriteReg(R0, 0x0001B000)  returns 0x00 (0000ms, 0395ms total)
T12D4 000:451 JLINK_WriteReg(R1, 0x00000400)  returns 0x00 (0000ms, 0395ms total)
T12D4 000:451 JLINK_WriteReg(R2, 0x000000FF)  returns 0x00 (0000ms, 0395ms total)
T12D4 000:451 JLINK_WriteReg(R3, 0x00000000)  returns 0x00 (0000ms, 0395ms total)
T12D4 000:451 JLINK_WriteReg(R4, 0x00000000)  returns 0x00 (0000ms, 0395ms total)
T12D4 000:451 JLINK_WriteReg(R5, 0x00000000)  returns 0x00 (0000ms, 0395ms total)
T12D4 000:451 JLINK_WriteReg(R6, 0x00000000)  returns 0x00 (0000ms, 0395ms total)
T12D4 000:451 JLINK_WriteReg(R7, 0x00000000)  returns 0x00 (0000ms, 0395ms total)
T12D4 000:451 JLINK_WriteReg(R8, 0x00000000)  returns 0x00 (0000ms, 0395ms total)
T12D4 000:451 JLINK_WriteReg(R9, 0x20000474)  returns 0x00 (0000ms, 0395ms total)
T12D4 000:451 JLINK_WriteReg(R10, 0x00000000)  returns 0x00 (0000ms, 0395ms total)
T12D4 000:451 JLINK_WriteReg(R11, 0x00000000)  returns 0x00 (0000ms, 0395ms total)
T12D4 000:451 JLINK_WriteReg(R12, 0x00000000)  returns 0x00 (0000ms, 0395ms total)
T12D4 000:451 JLINK_WriteReg(R13, 0x20002000)  returns 0x00 (0000ms, 0395ms total)
T12D4 000:451 JLINK_WriteReg(R14, 0x20000001)  returns 0x00 (0000ms, 0395ms total)
T12D4 000:451 JLINK_WriteReg(R15, 0x20000188)  returns 0x00 (0000ms, 0395ms total)
T12D4 000:451 JLINK_WriteReg(XPSR, 0x01000000)  returns 0x00 (0000ms, 0395ms total)
T12D4 000:451 JLINK_WriteReg(MSP, 0x20002000)  returns 0x00 (0000ms, 0395ms total)
T12D4 000:451 JLINK_WriteReg(PSP, 0x20002000)  returns 0x00 (0000ms, 0395ms total)
T12D4 000:451 JLINK_WriteReg(CFBP, 0x00000000)  returns 0x00 (0000ms, 0395ms total)
T12D4 000:451 JLINK_SetBPEx(Addr = 0x20000000, Type = 0xFFFFFFF2)  returns 0x00000002 (0000ms, 0395ms total)
T12D4 000:451 JLINK_Go() (0002ms, 0397ms total)
T12D4 000:453 JLINK_IsHalted() -- CPU_ReadMem(2 bytes @ 0x20000000)  returns TRUE (0005ms, 0402ms total)
T12D4 000:458 JLINK_ReadReg(R15)  returns 0x20000000 (0000ms, 0397ms total)
T12D4 000:458 JLINK_ClrBPEx(BPHandle = 0x00000002)  returns 0x00 (0000ms, 0397ms total)
T12D4 000:458 JLINK_ReadReg(R0)  returns 0x00000001 (0000ms, 0397ms total)
T12D4 000:458 JLINK_WriteReg(R0, 0x0001B000)  returns 0x00 (0000ms, 0397ms total)
T12D4 000:458 JLINK_WriteReg(R1, 0x00000400)  returns 0x00 (0000ms, 0397ms total)
T12D4 000:458 JLINK_WriteReg(R2, 0x000000FF)  returns 0x00 (0000ms, 0397ms total)
T12D4 000:458 JLINK_WriteReg(R3, 0x00000000)  returns 0x00 (0000ms, 0397ms total)
T12D4 000:458 JLINK_WriteReg(R4, 0x00000000)  returns 0x00 (0000ms, 0397ms total)
T12D4 000:458 JLINK_WriteReg(R5, 0x00000000)  returns 0x00 (0000ms, 0397ms total)
T12D4 000:458 JLINK_WriteReg(R6, 0x00000000)  returns 0x00 (0000ms, 0397ms total)
T12D4 000:458 JLINK_WriteReg(R7, 0x00000000)  returns 0x00 (0000ms, 0397ms total)
T12D4 000:458 JLINK_WriteReg(R8, 0x00000000)  returns 0x00 (0000ms, 0397ms total)
T12D4 000:458 JLINK_WriteReg(R9, 0x20000474)  returns 0x00 (0000ms, 0397ms total)
T12D4 000:458 JLINK_WriteReg(R10, 0x00000000)  returns 0x00 (0000ms, 0397ms total)
T12D4 000:458 JLINK_WriteReg(R11, 0x00000000)  returns 0x00 (0000ms, 0397ms total)
T12D4 000:458 JLINK_WriteReg(R12, 0x00000000)  returns 0x00 (0000ms, 0397ms total)
T12D4 000:458 JLINK_WriteReg(R13, 0x20002000)  returns 0x00 (0000ms, 0397ms total)
T12D4 000:458 JLINK_WriteReg(R14, 0x20000001)  returns 0x00 (0000ms, 0397ms total)
T12D4 000:458 JLINK_WriteReg(R15, 0x20000104)  returns 0x00 (0000ms, 0397ms total)
T12D4 000:458 JLINK_WriteReg(XPSR, 0x01000000)  returns 0x00 (0000ms, 0397ms total)
T12D4 000:458 JLINK_WriteReg(MSP, 0x20002000)  returns 0x00 (0000ms, 0397ms total)
T12D4 000:458 JLINK_WriteReg(PSP, 0x20002000)  returns 0x00 (0000ms, 0397ms total)
T12D4 000:458 JLINK_WriteReg(CFBP, 0x00000000)  returns 0x00 (0000ms, 0397ms total)
T12D4 000:458 JLINK_SetBPEx(Addr = 0x20000000, Type = 0xFFFFFFF2)  returns 0x00000003 (0000ms, 0397ms total)
T12D4 000:458 JLINK_Go() (0002ms, 0399ms total)
T12D4 000:460 JLINK_IsHalted()  returns FALSE (0001ms, 0400ms total)
T12D4 000:595 JLINK_IsHalted() -- CPU_ReadMem(2 bytes @ 0x20000000)  returns TRUE (0005ms, 0404ms total)
T12D4 000:600 JLINK_ReadReg(R15)  returns 0x20000000 (0000ms, 0399ms total)
T12D4 000:600 JLINK_ClrBPEx(BPHandle = 0x00000003)  returns 0x00 (0000ms, 0399ms total)
T12D4 000:600 JLINK_ReadReg(R0)  returns 0x00000000 (0000ms, 0399ms total)
T12D4 000:600 JLINK_WriteReg(R0, 0x0001B400)  returns 0x00 (0000ms, 0399ms total)
T12D4 000:600 JLINK_WriteReg(R1, 0x00000400)  returns 0x00 (0000ms, 0399ms total)
T12D4 000:600 JLINK_WriteReg(R2, 0x000000FF)  returns 0x00 (0000ms, 0399ms total)
T12D4 000:600 JLINK_WriteReg(R3, 0x00000000)  returns 0x00 (0000ms, 0399ms total)
T12D4 000:600 JLINK_WriteReg(R4, 0x00000000)  returns 0x00 (0000ms, 0399ms total)
T12D4 000:600 JLINK_WriteReg(R5, 0x00000000)  returns 0x00 (0000ms, 0399ms total)
T12D4 000:600 JLINK_WriteReg(R6, 0x00000000)  returns 0x00 (0000ms, 0399ms total)
T12D4 000:600 JLINK_WriteReg(R7, 0x00000000)  returns 0x00 (0000ms, 0399ms total)
T12D4 000:600 JLINK_WriteReg(R8, 0x00000000)  returns 0x00 (0000ms, 0399ms total)
T12D4 000:600 JLINK_WriteReg(R9, 0x20000474)  returns 0x00 (0000ms, 0399ms total)
T12D4 000:600 JLINK_WriteReg(R10, 0x00000000)  returns 0x00 (0000ms, 0399ms total)
T12D4 000:600 JLINK_WriteReg(R11, 0x00000000)  returns 0x00 (0000ms, 0399ms total)
T12D4 000:600 JLINK_WriteReg(R12, 0x00000000)  returns 0x00 (0000ms, 0399ms total)
T12D4 000:600 JLINK_WriteReg(R13, 0x20002000)  returns 0x00 (0000ms, 0399ms total)
T12D4 000:600 JLINK_WriteReg(R14, 0x20000001)  returns 0x00 (0000ms, 0399ms total)
T12D4 000:600 JLINK_WriteReg(R15, 0x20000188)  returns 0x00 (0000ms, 0399ms total)
T12D4 000:600 JLINK_WriteReg(XPSR, 0x01000000)  returns 0x00 (0000ms, 0399ms total)
T12D4 000:600 JLINK_WriteReg(MSP, 0x20002000)  returns 0x00 (0000ms, 0399ms total)
T12D4 000:600 JLINK_WriteReg(PSP, 0x20002000)  returns 0x00 (0000ms, 0399ms total)
T12D4 000:600 JLINK_WriteReg(CFBP, 0x00000000)  returns 0x00 (0000ms, 0399ms total)
T12D4 000:600 JLINK_SetBPEx(Addr = 0x20000000, Type = 0xFFFFFFF2)  returns 0x00000004 (0000ms, 0399ms total)
T12D4 000:600 JLINK_Go() (0003ms, 0402ms total)
T12D4 000:603 JLINK_IsHalted() -- CPU_ReadMem(2 bytes @ 0x20000000)  returns TRUE (0005ms, 0407ms total)
T12D4 000:608 JLINK_ReadReg(R15)  returns 0x20000000 (0000ms, 0402ms total)
T12D4 000:608 JLINK_ClrBPEx(BPHandle = 0x00000004)  returns 0x00 (0000ms, 0402ms total)
T12D4 000:608 JLINK_ReadReg(R0)  returns 0x00000001 (0000ms, 0402ms total)
T12D4 000:608 JLINK_WriteReg(R0, 0x0001B400)  returns 0x00 (0000ms, 0402ms total)
T12D4 000:608 JLINK_WriteReg(R1, 0x00000400)  returns 0x00 (0000ms, 0402ms total)
T12D4 000:608 JLINK_WriteReg(R2, 0x000000FF)  returns 0x00 (0000ms, 0402ms total)
T12D4 000:608 JLINK_WriteReg(R3, 0x00000000)  returns 0x00 (0000ms, 0402ms total)
T12D4 000:608 JLINK_WriteReg(R4, 0x00000000)  returns 0x00 (0000ms, 0402ms total)
T12D4 000:608 JLINK_WriteReg(R5, 0x00000000)  returns 0x00 (0000ms, 0402ms total)
T12D4 000:608 JLINK_WriteReg(R6, 0x00000000)  returns 0x00 (0000ms, 0402ms total)
T12D4 000:608 JLINK_WriteReg(R7, 0x00000000)  returns 0x00 (0000ms, 0402ms total)
T12D4 000:608 JLINK_WriteReg(R8, 0x00000000)  returns 0x00 (0000ms, 0402ms total)
T12D4 000:608 JLINK_WriteReg(R9, 0x20000474)  returns 0x00 (0000ms, 0402ms total)
T12D4 000:608 JLINK_WriteReg(R10, 0x00000000)  returns 0x00 (0000ms, 0402ms total)
T12D4 000:608 JLINK_WriteReg(R11, 0x00000000)  returns 0x00 (0000ms, 0402ms total)
T12D4 000:608 JLINK_WriteReg(R12, 0x00000000)  returns 0x00 (0000ms, 0402ms total)
T12D4 000:608 JLINK_WriteReg(R13, 0x20002000)  returns 0x00 (0000ms, 0402ms total)
T12D4 000:608 JLINK_WriteReg(R14, 0x20000001)  returns 0x00 (0000ms, 0402ms total)
T12D4 000:608 JLINK_WriteReg(R15, 0x20000104)  returns 0x00 (0000ms, 0402ms total)
T12D4 000:608 JLINK_WriteReg(XPSR, 0x01000000)  returns 0x00 (0000ms, 0402ms total)
T12D4 000:608 JLINK_WriteReg(MSP, 0x20002000)  returns 0x00 (0000ms, 0402ms total)
T12D4 000:608 JLINK_WriteReg(PSP, 0x20002000)  returns 0x00 (0000ms, 0402ms total)
T12D4 000:608 JLINK_WriteReg(CFBP, 0x00000000)  returns 0x00 (0000ms, 0402ms total)
T12D4 000:608 JLINK_SetBPEx(Addr = 0x20000000, Type = 0xFFFFFFF2)  returns 0x00000005 (0000ms, 0402ms total)
T12D4 000:608 JLINK_Go() (0002ms, 0404ms total)
T12D4 000:610 JLINK_IsHalted()  returns FALSE (0001ms, 0405ms total)
T12D4 000:624 JLINK_IsHalted()  returns FALSE (0001ms, 0405ms total)
T12D4 000:630 JLINK_IsHalted()  returns FALSE (0001ms, 0405ms total)
T12D4 000:632 JLINK_IsHalted() -- CPU_ReadMem(2 bytes @ 0x20000000)  returns TRUE (0005ms, 0409ms total)
T12D4 000:637 JLINK_ReadReg(R15)  returns 0x20000000 (0000ms, 0404ms total)
T12D4 000:637 JLINK_ClrBPEx(BPHandle = 0x00000005)  returns 0x00 (0000ms, 0404ms total)
T12D4 000:637 JLINK_ReadReg(R0)  returns 0x00000000 (0000ms, 0404ms total)
T12D4 000:637 JLINK_WriteReg(R0, 0x0001B800)  returns 0x00 (0000ms, 0404ms total)
T12D4 000:637 JLINK_WriteReg(R1, 0x00000400)  returns 0x00 (0000ms, 0404ms total)
T12D4 000:637 JLINK_WriteReg(R2, 0x000000FF)  returns 0x00 (0000ms, 0404ms total)
T12D4 000:637 JLINK_WriteReg(R3, 0x00000000)  returns 0x00 (0000ms, 0404ms total)
T12D4 000:637 JLINK_WriteReg(R4, 0x00000000)  returns 0x00 (0000ms, 0404ms total)
T12D4 000:637 JLINK_WriteReg(R5, 0x00000000)  returns 0x00 (0000ms, 0404ms total)
T12D4 000:637 JLINK_WriteReg(R6, 0x00000000)  returns 0x00 (0000ms, 0404ms total)
T12D4 000:637 JLINK_WriteReg(R7, 0x00000000)  returns 0x00 (0000ms, 0404ms total)
T12D4 000:637 JLINK_WriteReg(R8, 0x00000000)  returns 0x00 (0000ms, 0404ms total)
T12D4 000:637 JLINK_WriteReg(R9, 0x20000474)  returns 0x00 (0000ms, 0404ms total)
T12D4 000:637 JLINK_WriteReg(R10, 0x00000000)  returns 0x00 (0000ms, 0404ms total)
T12D4 000:637 JLINK_WriteReg(R11, 0x00000000)  returns 0x00 (0000ms, 0404ms total)
T12D4 000:637 JLINK_WriteReg(R12, 0x00000000)  returns 0x00 (0000ms, 0404ms total)
T12D4 000:637 JLINK_WriteReg(R13, 0x20002000)  returns 0x00 (0000ms, 0404ms total)
T12D4 000:637 JLINK_WriteReg(R14, 0x20000001)  returns 0x00 (0000ms, 0404ms total)
T12D4 000:637 JLINK_WriteReg(R15, 0x20000188)  returns 0x00 (0000ms, 0404ms total)
T12D4 000:637 JLINK_WriteReg(XPSR, 0x01000000)  returns 0x00 (0000ms, 0404ms total)
T12D4 000:637 JLINK_WriteReg(MSP, 0x20002000)  returns 0x00 (0000ms, 0404ms total)
T12D4 000:637 JLINK_WriteReg(PSP, 0x20002000)  returns 0x00 (0000ms, 0404ms total)
T12D4 000:637 JLINK_WriteReg(CFBP, 0x00000000)  returns 0x00 (0000ms, 0404ms total)
T12D4 000:637 JLINK_SetBPEx(Addr = 0x20000000, Type = 0xFFFFFFF2)  returns 0x00000006 (0000ms, 0404ms total)
T12D4 000:637 JLINK_Go() (0003ms, 0407ms total)
T12D4 000:640 JLINK_IsHalted() -- CPU_ReadMem(2 bytes @ 0x20000000)  returns TRUE (0005ms, 0412ms total)
T12D4 000:645 JLINK_ReadReg(R15)  returns 0x20000000 (0000ms, 0407ms total)
T12D4 000:645 JLINK_ClrBPEx(BPHandle = 0x00000006)  returns 0x00 (0000ms, 0407ms total)
T12D4 000:645 JLINK_ReadReg(R0)  returns 0x00000001 (0000ms, 0407ms total)
T12D4 000:645 JLINK_WriteReg(R0, 0x0001B800)  returns 0x00 (0000ms, 0407ms total)
T12D4 000:645 JLINK_WriteReg(R1, 0x00000400)  returns 0x00 (0000ms, 0407ms total)
T12D4 000:645 JLINK_WriteReg(R2, 0x000000FF)  returns 0x00 (0000ms, 0407ms total)
T12D4 000:645 JLINK_WriteReg(R3, 0x00000000)  returns 0x00 (0000ms, 0407ms total)
T12D4 000:645 JLINK_WriteReg(R4, 0x00000000)  returns 0x00 (0000ms, 0407ms total)
T12D4 000:645 JLINK_WriteReg(R5, 0x00000000)  returns 0x00 (0000ms, 0407ms total)
T12D4 000:645 JLINK_WriteReg(R6, 0x00000000)  returns 0x00 (0000ms, 0407ms total)
T12D4 000:645 JLINK_WriteReg(R7, 0x00000000)  returns 0x00 (0000ms, 0407ms total)
T12D4 000:645 JLINK_WriteReg(R8, 0x00000000)  returns 0x00 (0000ms, 0407ms total)
T12D4 000:645 JLINK_WriteReg(R9, 0x20000474)  returns 0x00 (0000ms, 0407ms total)
T12D4 000:645 JLINK_WriteReg(R10, 0x00000000)  returns 0x00 (0000ms, 0407ms total)
T12D4 000:645 JLINK_WriteReg(R11, 0x00000000)  returns 0x00 (0000ms, 0407ms total)
T12D4 000:645 JLINK_WriteReg(R12, 0x00000000)  returns 0x00 (0000ms, 0407ms total)
T12D4 000:645 JLINK_WriteReg(R13, 0x20002000)  returns 0x00 (0000ms, 0407ms total)
T12D4 000:645 JLINK_WriteReg(R14, 0x20000001)  returns 0x00 (0000ms, 0407ms total)
T12D4 000:645 JLINK_WriteReg(R15, 0x20000104)  returns 0x00 (0000ms, 0407ms total)
T12D4 000:645 JLINK_WriteReg(XPSR, 0x01000000)  returns 0x00 (0000ms, 0407ms total)
T12D4 000:645 JLINK_WriteReg(MSP, 0x20002000)  returns 0x00 (0000ms, 0407ms total)
T12D4 000:645 JLINK_WriteReg(PSP, 0x20002000)  returns 0x00 (0000ms, 0407ms total)
T12D4 000:645 JLINK_WriteReg(CFBP, 0x00000000)  returns 0x00 (0000ms, 0407ms total)
T12D4 000:645 JLINK_SetBPEx(Addr = 0x20000000, Type = 0xFFFFFFF2)  returns 0x00000007 (0000ms, 0407ms total)
T12D4 000:645 JLINK_Go() (0002ms, 0409ms total)
T12D4 000:647 JLINK_IsHalted()  returns FALSE (0001ms, 0410ms total)
T12D4 000:661 JLINK_IsHalted()  returns FALSE (0001ms, 0410ms total)
T12D4 000:663 JLINK_IsHalted()  returns FALSE (0001ms, 0410ms total)
T12D4 000:665 JLINK_IsHalted()  returns FALSE (0002ms, 0411ms total)
T12D4 000:668 JLINK_IsHalted() -- CPU_ReadMem(2 bytes @ 0x20000000)  returns TRUE (0005ms, 0414ms total)
T12D4 000:673 JLINK_ReadReg(R15)  returns 0x20000000 (0000ms, 0409ms total)
T12D4 000:673 JLINK_ClrBPEx(BPHandle = 0x00000007)  returns 0x00 (0000ms, 0409ms total)
T12D4 000:673 JLINK_ReadReg(R0)  returns 0x00000000 (0000ms, 0409ms total)
T12D4 000:673 JLINK_WriteReg(R0, 0x0001BC00)  returns 0x00 (0000ms, 0409ms total)
T12D4 000:673 JLINK_WriteReg(R1, 0x00000400)  returns 0x00 (0000ms, 0409ms total)
T12D4 000:673 JLINK_WriteReg(R2, 0x000000FF)  returns 0x00 (0000ms, 0409ms total)
T12D4 000:673 JLINK_WriteReg(R3, 0x00000000)  returns 0x00 (0000ms, 0409ms total)
T12D4 000:673 JLINK_WriteReg(R4, 0x00000000)  returns 0x00 (0000ms, 0409ms total)
T12D4 000:673 JLINK_WriteReg(R5, 0x00000000)  returns 0x00 (0000ms, 0409ms total)
T12D4 000:673 JLINK_WriteReg(R6, 0x00000000)  returns 0x00 (0000ms, 0409ms total)
T12D4 000:673 JLINK_WriteReg(R7, 0x00000000)  returns 0x00 (0000ms, 0409ms total)
T12D4 000:673 JLINK_WriteReg(R8, 0x00000000)  returns 0x00 (0000ms, 0409ms total)
T12D4 000:673 JLINK_WriteReg(R9, 0x20000474)  returns 0x00 (0000ms, 0409ms total)
T12D4 000:673 JLINK_WriteReg(R10, 0x00000000)  returns 0x00 (0000ms, 0409ms total)
T12D4 000:673 JLINK_WriteReg(R11, 0x00000000)  returns 0x00 (0000ms, 0409ms total)
T12D4 000:673 JLINK_WriteReg(R12, 0x00000000)  returns 0x00 (0000ms, 0409ms total)
T12D4 000:673 JLINK_WriteReg(R13, 0x20002000)  returns 0x00 (0000ms, 0409ms total)
T12D4 000:673 JLINK_WriteReg(R14, 0x20000001)  returns 0x00 (0000ms, 0409ms total)
T12D4 000:673 JLINK_WriteReg(R15, 0x20000188)  returns 0x00 (0000ms, 0409ms total)
T12D4 000:673 JLINK_WriteReg(XPSR, 0x01000000)  returns 0x00 (0000ms, 0409ms total)
T12D4 000:673 JLINK_WriteReg(MSP, 0x20002000)  returns 0x00 (0000ms, 0409ms total)
T12D4 000:673 JLINK_WriteReg(PSP, 0x20002000)  returns 0x00 (0000ms, 0409ms total)
T12D4 000:673 JLINK_WriteReg(CFBP, 0x00000000)  returns 0x00 (0000ms, 0409ms total)
T12D4 000:673 JLINK_SetBPEx(Addr = 0x20000000, Type = 0xFFFFFFF2)  returns 0x00000008 (0000ms, 0409ms total)
T12D4 000:673 JLINK_Go() (0004ms, 0413ms total)
T12D4 000:677 JLINK_IsHalted() -- CPU_ReadMem(2 bytes @ 0x20000000)  returns TRUE (0008ms, 0421ms total)
T12D4 000:685 JLINK_ReadReg(R15)  returns 0x20000000 (0000ms, 0413ms total)
T12D4 000:685 JLINK_ClrBPEx(BPHandle = 0x00000008)  returns 0x00 (0000ms, 0413ms total)
T12D4 000:685 JLINK_ReadReg(R0)  returns 0x00000001 (0000ms, 0413ms total)
T12D4 000:685 JLINK_WriteReg(R0, 0x0001BC00)  returns 0x00 (0000ms, 0413ms total)
T12D4 000:685 JLINK_WriteReg(R1, 0x00000400)  returns 0x00 (0000ms, 0413ms total)
T12D4 000:685 JLINK_WriteReg(R2, 0x000000FF)  returns 0x00 (0000ms, 0413ms total)
T12D4 000:685 JLINK_WriteReg(R3, 0x00000000)  returns 0x00 (0000ms, 0413ms total)
T12D4 000:685 JLINK_WriteReg(R4, 0x00000000)  returns 0x00 (0000ms, 0413ms total)
T12D4 000:685 JLINK_WriteReg(R5, 0x00000000)  returns 0x00 (0000ms, 0413ms total)
T12D4 000:685 JLINK_WriteReg(R6, 0x00000000)  returns 0x00 (0000ms, 0413ms total)
T12D4 000:685 JLINK_WriteReg(R7, 0x00000000)  returns 0x00 (0000ms, 0413ms total)
T12D4 000:685 JLINK_WriteReg(R8, 0x00000000)  returns 0x00 (0000ms, 0413ms total)
T12D4 000:685 JLINK_WriteReg(R9, 0x20000474)  returns 0x00 (0000ms, 0413ms total)
T12D4 000:685 JLINK_WriteReg(R10, 0x00000000)  returns 0x00 (0000ms, 0413ms total)
T12D4 000:685 JLINK_WriteReg(R11, 0x00000000)  returns 0x00 (0000ms, 0413ms total)
T12D4 000:685 JLINK_WriteReg(R12, 0x00000000)  returns 0x00 (0000ms, 0413ms total)
T12D4 000:685 JLINK_WriteReg(R13, 0x20002000)  returns 0x00 (0000ms, 0413ms total)
T12D4 000:685 JLINK_WriteReg(R14, 0x20000001)  returns 0x00 (0000ms, 0413ms total)
T12D4 000:685 JLINK_WriteReg(R15, 0x20000104)  returns 0x00 (0000ms, 0413ms total)
T12D4 000:685 JLINK_WriteReg(XPSR, 0x01000000)  returns 0x00 (0000ms, 0413ms total)
T12D4 000:685 JLINK_WriteReg(MSP, 0x20002000)  returns 0x00 (0000ms, 0413ms total)
T12D4 000:685 JLINK_WriteReg(PSP, 0x20002000)  returns 0x00 (0000ms, 0413ms total)
T12D4 000:685 JLINK_WriteReg(CFBP, 0x00000000)  returns 0x00 (0000ms, 0413ms total)
T12D4 000:685 JLINK_SetBPEx(Addr = 0x20000000, Type = 0xFFFFFFF2)  returns 0x00000009 (0000ms, 0413ms total)
T12D4 000:685 JLINK_Go() (0002ms, 0415ms total)
T12D4 000:687 JLINK_IsHalted()  returns FALSE (0001ms, 0416ms total)
T12D4 000:698 JLINK_IsHalted()  returns FALSE (0001ms, 0416ms total)
T12D4 000:700 JLINK_IsHalted()  returns FALSE (0001ms, 0416ms total)
T12D4 000:710 JLINK_IsHalted() -- CPU_ReadMem(2 bytes @ 0x20000000)  returns TRUE (0005ms, 0420ms total)
T12D4 000:715 JLINK_ReadReg(R15)  returns 0x20000000 (0000ms, 0415ms total)
T12D4 000:715 JLINK_ClrBPEx(BPHandle = 0x00000009)  returns 0x00 (0000ms, 0415ms total)
T12D4 000:715 JLINK_ReadReg(R0)  returns 0x00000000 (0000ms, 0415ms total)
T12D4 000:715 JLINK_WriteReg(R0, 0x0001C000)  returns 0x00 (0000ms, 0415ms total)
T12D4 000:715 JLINK_WriteReg(R1, 0x00000400)  returns 0x00 (0000ms, 0415ms total)
T12D4 000:715 JLINK_WriteReg(R2, 0x000000FF)  returns 0x00 (0000ms, 0415ms total)
T12D4 000:715 JLINK_WriteReg(R3, 0x00000000)  returns 0x00 (0000ms, 0415ms total)
T12D4 000:715 JLINK_WriteReg(R4, 0x00000000)  returns 0x00 (0000ms, 0415ms total)
T12D4 000:715 JLINK_WriteReg(R5, 0x00000000)  returns 0x00 (0000ms, 0415ms total)
T12D4 000:715 JLINK_WriteReg(R6, 0x00000000)  returns 0x00 (0000ms, 0415ms total)
T12D4 000:715 JLINK_WriteReg(R7, 0x00000000)  returns 0x00 (0000ms, 0415ms total)
T12D4 000:715 JLINK_WriteReg(R8, 0x00000000)  returns 0x00 (0000ms, 0415ms total)
T12D4 000:715 JLINK_WriteReg(R9, 0x20000474)  returns 0x00 (0000ms, 0415ms total)
T12D4 000:715 JLINK_WriteReg(R10, 0x00000000)  returns 0x00 (0000ms, 0415ms total)
T12D4 000:715 JLINK_WriteReg(R11, 0x00000000)  returns 0x00 (0000ms, 0415ms total)
T12D4 000:715 JLINK_WriteReg(R12, 0x00000000)  returns 0x00 (0000ms, 0415ms total)
T12D4 000:715 JLINK_WriteReg(R13, 0x20002000)  returns 0x00 (0000ms, 0415ms total)
T12D4 000:715 JLINK_WriteReg(R14, 0x20000001)  returns 0x00 (0000ms, 0415ms total)
T12D4 000:715 JLINK_WriteReg(R15, 0x20000188)  returns 0x00 (0000ms, 0415ms total)
T12D4 000:715 JLINK_WriteReg(XPSR, 0x01000000)  returns 0x00 (0000ms, 0415ms total)
T12D4 000:715 JLINK_WriteReg(MSP, 0x20002000)  returns 0x00 (0000ms, 0415ms total)
T12D4 000:715 JLINK_WriteReg(PSP, 0x20002000)  returns 0x00 (0000ms, 0415ms total)
T12D4 000:715 JLINK_WriteReg(CFBP, 0x00000000)  returns 0x00 (0000ms, 0415ms total)
T12D4 000:715 JLINK_SetBPEx(Addr = 0x20000000, Type = 0xFFFFFFF2)  returns 0x0000000A (0000ms, 0415ms total)
T12D4 000:715 JLINK_Go() (0003ms, 0418ms total)
T12D4 000:718 JLINK_IsHalted() -- CPU_ReadMem(2 bytes @ 0x20000000)  returns TRUE (0005ms, 0423ms total)
T12D4 000:723 JLINK_ReadReg(R15)  returns 0x20000000 (0000ms, 0418ms total)
T12D4 000:723 JLINK_ClrBPEx(BPHandle = 0x0000000A)  returns 0x00 (0000ms, 0418ms total)
T12D4 000:723 JLINK_ReadReg(R0)  returns 0x00000001 (0000ms, 0418ms total)
T12D4 000:723 JLINK_WriteReg(R0, 0x0001C000)  returns 0x00 (0000ms, 0418ms total)
T12D4 000:723 JLINK_WriteReg(R1, 0x00000400)  returns 0x00 (0000ms, 0418ms total)
T12D4 000:723 JLINK_WriteReg(R2, 0x000000FF)  returns 0x00 (0000ms, 0418ms total)
T12D4 000:723 JLINK_WriteReg(R3, 0x00000000)  returns 0x00 (0000ms, 0418ms total)
T12D4 000:723 JLINK_WriteReg(R4, 0x00000000)  returns 0x00 (0000ms, 0418ms total)
T12D4 000:723 JLINK_WriteReg(R5, 0x00000000)  returns 0x00 (0000ms, 0418ms total)
T12D4 000:723 JLINK_WriteReg(R6, 0x00000000)  returns 0x00 (0000ms, 0418ms total)
T12D4 000:723 JLINK_WriteReg(R7, 0x00000000)  returns 0x00 (0000ms, 0418ms total)
T12D4 000:723 JLINK_WriteReg(R8, 0x00000000)  returns 0x00 (0000ms, 0418ms total)
T12D4 000:723 JLINK_WriteReg(R9, 0x20000474)  returns 0x00 (0000ms, 0418ms total)
T12D4 000:723 JLINK_WriteReg(R10, 0x00000000)  returns 0x00 (0000ms, 0418ms total)
T12D4 000:723 JLINK_WriteReg(R11, 0x00000000)  returns 0x00 (0000ms, 0418ms total)
T12D4 000:723 JLINK_WriteReg(R12, 0x00000000)  returns 0x00 (0000ms, 0418ms total)
T12D4 000:723 JLINK_WriteReg(R13, 0x20002000)  returns 0x00 (0000ms, 0418ms total)
T12D4 000:723 JLINK_WriteReg(R14, 0x20000001)  returns 0x00 (0000ms, 0418ms total)
T12D4 000:723 JLINK_WriteReg(R15, 0x20000104)  returns 0x00 (0000ms, 0418ms total)
T12D4 000:723 JLINK_WriteReg(XPSR, 0x01000000)  returns 0x00 (0000ms, 0418ms total)
T12D4 000:723 JLINK_WriteReg(MSP, 0x20002000)  returns 0x00 (0000ms, 0418ms total)
T12D4 000:723 JLINK_WriteReg(PSP, 0x20002000)  returns 0x00 (0000ms, 0418ms total)
T12D4 000:723 JLINK_WriteReg(CFBP, 0x00000000)  returns 0x00 (0000ms, 0418ms total)
T12D4 000:723 JLINK_SetBPEx(Addr = 0x20000000, Type = 0xFFFFFFF2)  returns 0x0000000B (0000ms, 0418ms total)
T12D4 000:723 JLINK_Go() (0002ms, 0420ms total)
T12D4 000:725 JLINK_IsHalted()  returns FALSE (0001ms, 0421ms total)
T12D4 000:729 JLINK_IsHalted()  returns FALSE (0001ms, 0421ms total)
T12D4 000:731 JLINK_IsHalted()  returns FALSE (0002ms, 0422ms total)
T12D4 000:734 JLINK_IsHalted()  returns FALSE (0001ms, 0421ms total)
T12D4 000:736 JLINK_IsHalted()  returns FALSE (0002ms, 0422ms total)
T12D4 000:743 JLINK_IsHalted()  returns FALSE (0001ms, 0421ms total)
T12D4 000:745 JLINK_IsHalted()  returns FALSE (0001ms, 0421ms total)
T12D4 000:747 JLINK_IsHalted() -- CPU_ReadMem(2 bytes @ 0x20000000)  returns TRUE (0005ms, 0425ms total)
T12D4 000:752 JLINK_ReadReg(R15)  returns 0x20000000 (0000ms, 0420ms total)
T12D4 000:752 JLINK_ClrBPEx(BPHandle = 0x0000000B)  returns 0x00 (0000ms, 0420ms total)
T12D4 000:752 JLINK_ReadReg(R0)  returns 0x00000000 (0000ms, 0420ms total)
T12D4 000:752 JLINK_WriteReg(R0, 0x0001C400)  returns 0x00 (0000ms, 0420ms total)
T12D4 000:752 JLINK_WriteReg(R1, 0x00000400)  returns 0x00 (0000ms, 0420ms total)
T12D4 000:752 JLINK_WriteReg(R2, 0x000000FF)  returns 0x00 (0000ms, 0420ms total)
T12D4 000:752 JLINK_WriteReg(R3, 0x00000000)  returns 0x00 (0000ms, 0420ms total)
T12D4 000:752 JLINK_WriteReg(R4, 0x00000000)  returns 0x00 (0000ms, 0420ms total)
T12D4 000:752 JLINK_WriteReg(R5, 0x00000000)  returns 0x00 (0000ms, 0420ms total)
T12D4 000:752 JLINK_WriteReg(R6, 0x00000000)  returns 0x00 (0000ms, 0420ms total)
T12D4 000:752 JLINK_WriteReg(R7, 0x00000000)  returns 0x00 (0000ms, 0420ms total)
T12D4 000:752 JLINK_WriteReg(R8, 0x00000000)  returns 0x00 (0000ms, 0420ms total)
T12D4 000:752 JLINK_WriteReg(R9, 0x20000474)  returns 0x00 (0000ms, 0420ms total)
T12D4 000:752 JLINK_WriteReg(R10, 0x00000000)  returns 0x00 (0001ms, 0421ms total)
T12D4 000:753 JLINK_WriteReg(R11, 0x00000000)  returns 0x00 (0000ms, 0421ms total)
T12D4 000:753 JLINK_WriteReg(R12, 0x00000000)  returns 0x00 (0000ms, 0421ms total)
T12D4 000:753 JLINK_WriteReg(R13, 0x20002000)  returns 0x00 (0000ms, 0421ms total)
T12D4 000:753 JLINK_WriteReg(R14, 0x20000001)  returns 0x00 (0000ms, 0421ms total)
T12D4 000:753 JLINK_WriteReg(R15, 0x20000188)  returns 0x00 (0000ms, 0421ms total)
T12D4 000:753 JLINK_WriteReg(XPSR, 0x01000000)  returns 0x00 (0000ms, 0421ms total)
T12D4 000:753 JLINK_WriteReg(MSP, 0x20002000)  returns 0x00 (0000ms, 0421ms total)
T12D4 000:753 JLINK_WriteReg(PSP, 0x20002000)  returns 0x00 (0000ms, 0421ms total)
T12D4 000:753 JLINK_WriteReg(CFBP, 0x00000000)  returns 0x00 (0000ms, 0421ms total)
T12D4 000:753 JLINK_SetBPEx(Addr = 0x20000000, Type = 0xFFFFFFF2)  returns 0x0000000C (0000ms, 0421ms total)
T12D4 000:753 JLINK_Go() (0002ms, 0423ms total)
T12D4 000:755 JLINK_IsHalted() -- CPU_ReadMem(2 bytes @ 0x20000000)  returns TRUE (0005ms, 0428ms total)
T12D4 000:760 JLINK_ReadReg(R15)  returns 0x20000000 (0000ms, 0423ms total)
T12D4 000:760 JLINK_ClrBPEx(BPHandle = 0x0000000C)  returns 0x00 (0000ms, 0423ms total)
T12D4 000:760 JLINK_ReadReg(R0)  returns 0x00000001 (0000ms, 0423ms total)
T12D4 000:760 JLINK_WriteReg(R0, 0x0001C400)  returns 0x00 (0000ms, 0423ms total)
T12D4 000:760 JLINK_WriteReg(R1, 0x00000400)  returns 0x00 (0000ms, 0423ms total)
T12D4 000:760 JLINK_WriteReg(R2, 0x000000FF)  returns 0x00 (0000ms, 0423ms total)
T12D4 000:760 JLINK_WriteReg(R3, 0x00000000)  returns 0x00 (0000ms, 0423ms total)
T12D4 000:760 JLINK_WriteReg(R4, 0x00000000)  returns 0x00 (0000ms, 0423ms total)
T12D4 000:760 JLINK_WriteReg(R5, 0x00000000)  returns 0x00 (0000ms, 0423ms total)
T12D4 000:760 JLINK_WriteReg(R6, 0x00000000)  returns 0x00 (0000ms, 0423ms total)
T12D4 000:760 JLINK_WriteReg(R7, 0x00000000)  returns 0x00 (0000ms, 0423ms total)
T12D4 000:760 JLINK_WriteReg(R8, 0x00000000)  returns 0x00 (0000ms, 0423ms total)
T12D4 000:760 JLINK_WriteReg(R9, 0x20000474)  returns 0x00 (0000ms, 0423ms total)
T12D4 000:760 JLINK_WriteReg(R10, 0x00000000)  returns 0x00 (0000ms, 0423ms total)
T12D4 000:760 JLINK_WriteReg(R11, 0x00000000)  returns 0x00 (0000ms, 0423ms total)
T12D4 000:760 JLINK_WriteReg(R12, 0x00000000)  returns 0x00 (0000ms, 0423ms total)
T12D4 000:760 JLINK_WriteReg(R13, 0x20002000)  returns 0x00 (0000ms, 0423ms total)
T12D4 000:760 JLINK_WriteReg(R14, 0x20000001)  returns 0x00 (0000ms, 0423ms total)
T12D4 000:760 JLINK_WriteReg(R15, 0x20000104)  returns 0x00 (0000ms, 0423ms total)
T12D4 000:760 JLINK_WriteReg(XPSR, 0x01000000)  returns 0x00 (0000ms, 0423ms total)
T12D4 000:760 JLINK_WriteReg(MSP, 0x20002000)  returns 0x00 (0000ms, 0423ms total)
T12D4 000:760 JLINK_WriteReg(PSP, 0x20002000)  returns 0x00 (0000ms, 0423ms total)
T12D4 000:760 JLINK_WriteReg(CFBP, 0x00000000)  returns 0x00 (0000ms, 0423ms total)
T12D4 000:760 JLINK_SetBPEx(Addr = 0x20000000, Type = 0xFFFFFFF2)  returns 0x0000000D (0000ms, 0423ms total)
T12D4 000:760 JLINK_Go() (0002ms, 0425ms total)
T12D4 000:762 JLINK_IsHalted()  returns FALSE (0001ms, 0426ms total)
T12D4 000:776 JLINK_IsHalted()  returns FALSE (0001ms, 0426ms total)
T12D4 000:778 JLINK_IsHalted()  returns FALSE (0001ms, 0426ms total)
T12D4 000:780 JLINK_IsHalted()  returns FALSE (0001ms, 0426ms total)
T12D4 000:782 JLINK_IsHalted()  returns FALSE (0001ms, 0426ms total)
T12D4 000:784 JLINK_IsHalted() -- CPU_ReadMem(2 bytes @ 0x20000000)  returns TRUE (0005ms, 0430ms total)
T12D4 000:789 JLINK_ReadReg(R15)  returns 0x20000000 (0000ms, 0425ms total)
T12D4 000:789 JLINK_ClrBPEx(BPHandle = 0x0000000D)  returns 0x00 (0000ms, 0425ms total)
T12D4 000:789 JLINK_ReadReg(R0)  returns 0x00000000 (0000ms, 0425ms total)
T12D4 000:789 JLINK_WriteReg(R0, 0x0001C800)  returns 0x00 (0000ms, 0425ms total)
T12D4 000:789 JLINK_WriteReg(R1, 0x00000400)  returns 0x00 (0000ms, 0425ms total)
T12D4 000:789 JLINK_WriteReg(R2, 0x000000FF)  returns 0x00 (0000ms, 0425ms total)
T12D4 000:789 JLINK_WriteReg(R3, 0x00000000)  returns 0x00 (0000ms, 0425ms total)
T12D4 000:789 JLINK_WriteReg(R4, 0x00000000)  returns 0x00 (0000ms, 0425ms total)
T12D4 000:789 JLINK_WriteReg(R5, 0x00000000)  returns 0x00 (0000ms, 0425ms total)
T12D4 000:789 JLINK_WriteReg(R6, 0x00000000)  returns 0x00 (0000ms, 0425ms total)
T12D4 000:789 JLINK_WriteReg(R7, 0x00000000)  returns 0x00 (0000ms, 0425ms total)
T12D4 000:789 JLINK_WriteReg(R8, 0x00000000)  returns 0x00 (0000ms, 0425ms total)
T12D4 000:789 JLINK_WriteReg(R9, 0x20000474)  returns 0x00 (0000ms, 0425ms total)
T12D4 000:789 JLINK_WriteReg(R10, 0x00000000)  returns 0x00 (0000ms, 0425ms total)
T12D4 000:789 JLINK_WriteReg(R11, 0x00000000)  returns 0x00 (0000ms, 0425ms total)
T12D4 000:789 JLINK_WriteReg(R12, 0x00000000)  returns 0x00 (0000ms, 0425ms total)
T12D4 000:789 JLINK_WriteReg(R13, 0x20002000)  returns 0x00 (0000ms, 0425ms total)
T12D4 000:789 JLINK_WriteReg(R14, 0x20000001)  returns 0x00 (0000ms, 0425ms total)
T12D4 000:789 JLINK_WriteReg(R15, 0x20000188)  returns 0x00 (0000ms, 0425ms total)
T12D4 000:789 JLINK_WriteReg(XPSR, 0x01000000)  returns 0x00 (0000ms, 0425ms total)
T12D4 000:789 JLINK_WriteReg(MSP, 0x20002000)  returns 0x00 (0000ms, 0425ms total)
T12D4 000:789 JLINK_WriteReg(PSP, 0x20002000)  returns 0x00 (0000ms, 0425ms total)
T12D4 000:789 JLINK_WriteReg(CFBP, 0x00000000)  returns 0x00 (0000ms, 0425ms total)
T12D4 000:789 JLINK_SetBPEx(Addr = 0x20000000, Type = 0xFFFFFFF2)  returns 0x0000000E (0000ms, 0425ms total)
T12D4 000:789 JLINK_Go() (0003ms, 0428ms total)
T12D4 000:792 JLINK_IsHalted() -- CPU_ReadMem(2 bytes @ 0x20000000)  returns TRUE (0005ms, 0433ms total)
T12D4 000:797 JLINK_ReadReg(R15)  returns 0x20000000 (0000ms, 0428ms total)
T12D4 000:797 JLINK_ClrBPEx(BPHandle = 0x0000000E)  returns 0x00 (0000ms, 0428ms total)
T12D4 000:797 JLINK_ReadReg(R0)  returns 0x00000001 (0000ms, 0428ms total)
T12D4 000:797 JLINK_WriteReg(R0, 0x0001C800)  returns 0x00 (0000ms, 0428ms total)
T12D4 000:797 JLINK_WriteReg(R1, 0x00000400)  returns 0x00 (0000ms, 0428ms total)
T12D4 000:797 JLINK_WriteReg(R2, 0x000000FF)  returns 0x00 (0000ms, 0428ms total)
T12D4 000:797 JLINK_WriteReg(R3, 0x00000000)  returns 0x00 (0000ms, 0428ms total)
T12D4 000:797 JLINK_WriteReg(R4, 0x00000000)  returns 0x00 (0000ms, 0428ms total)
T12D4 000:797 JLINK_WriteReg(R5, 0x00000000)  returns 0x00 (0000ms, 0428ms total)
T12D4 000:797 JLINK_WriteReg(R6, 0x00000000)  returns 0x00 (0000ms, 0428ms total)
T12D4 000:797 JLINK_WriteReg(R7, 0x00000000)  returns 0x00 (0000ms, 0428ms total)
T12D4 000:797 JLINK_WriteReg(R8, 0x00000000)  returns 0x00 (0000ms, 0428ms total)
T12D4 000:797 JLINK_WriteReg(R9, 0x20000474)  returns 0x00 (0000ms, 0428ms total)
T12D4 000:797 JLINK_WriteReg(R10, 0x00000000)  returns 0x00 (0000ms, 0428ms total)
T12D4 000:797 JLINK_WriteReg(R11, 0x00000000)  returns 0x00 (0000ms, 0428ms total)
T12D4 000:797 JLINK_WriteReg(R12, 0x00000000)  returns 0x00 (0000ms, 0428ms total)
T12D4 000:797 JLINK_WriteReg(R13, 0x20002000)  returns 0x00 (0000ms, 0428ms total)
T12D4 000:797 JLINK_WriteReg(R14, 0x20000001)  returns 0x00 (0000ms, 0428ms total)
T12D4 000:797 JLINK_WriteReg(R15, 0x20000104)  returns 0x00 (0000ms, 0428ms total)
T12D4 000:797 JLINK_WriteReg(XPSR, 0x01000000)  returns 0x00 (0000ms, 0428ms total)
T12D4 000:797 JLINK_WriteReg(MSP, 0x20002000)  returns 0x00 (0000ms, 0428ms total)
T12D4 000:797 JLINK_WriteReg(PSP, 0x20002000)  returns 0x00 (0000ms, 0428ms total)
T12D4 000:797 JLINK_WriteReg(CFBP, 0x00000000)  returns 0x00 (0000ms, 0428ms total)
T12D4 000:797 JLINK_SetBPEx(Addr = 0x20000000, Type = 0xFFFFFFF2)  returns 0x0000000F (0000ms, 0428ms total)
T12D4 000:797 JLINK_Go() (0002ms, 0430ms total)
T12D4 000:799 JLINK_IsHalted()  returns FALSE (0001ms, 0431ms total)
T12D4 000:819 JLINK_IsHalted()  returns FALSE (0001ms, 0431ms total)
T12D4 000:821 JLINK_IsHalted() -- CPU_ReadMem(2 bytes @ 0x20000000)  returns TRUE (0005ms, 0435ms total)
T12D4 000:826 JLINK_ReadReg(R15)  returns 0x20000000 (0000ms, 0430ms total)
T12D4 000:826 JLINK_ClrBPEx(BPHandle = 0x0000000F)  returns 0x00 (0000ms, 0430ms total)
T12D4 000:826 JLINK_ReadReg(R0)  returns 0x00000000 (0000ms, 0430ms total)
T12D4 000:827 JLINK_WriteReg(R0, 0x0001CC00)  returns 0x00 (0000ms, 0430ms total)
T12D4 000:827 JLINK_WriteReg(R1, 0x00000400)  returns 0x00 (0000ms, 0430ms total)
T12D4 000:827 JLINK_WriteReg(R2, 0x000000FF)  returns 0x00 (0000ms, 0430ms total)
T12D4 000:827 JLINK_WriteReg(R3, 0x00000000)  returns 0x00 (0000ms, 0430ms total)
T12D4 000:827 JLINK_WriteReg(R4, 0x00000000)  returns 0x00 (0000ms, 0430ms total)
T12D4 000:827 JLINK_WriteReg(R5, 0x00000000)  returns 0x00 (0000ms, 0430ms total)
T12D4 000:827 JLINK_WriteReg(R6, 0x00000000)  returns 0x00 (0000ms, 0430ms total)
T12D4 000:827 JLINK_WriteReg(R7, 0x00000000)  returns 0x00 (0000ms, 0430ms total)
T12D4 000:827 JLINK_WriteReg(R8, 0x00000000)  returns 0x00 (0000ms, 0430ms total)
T12D4 000:827 JLINK_WriteReg(R9, 0x20000474)  returns 0x00 (0000ms, 0430ms total)
T12D4 000:827 JLINK_WriteReg(R10, 0x00000000)  returns 0x00 (0000ms, 0430ms total)
T12D4 000:827 JLINK_WriteReg(R11, 0x00000000)  returns 0x00 (0000ms, 0430ms total)
T12D4 000:827 JLINK_WriteReg(R12, 0x00000000)  returns 0x00 (0000ms, 0430ms total)
T12D4 000:827 JLINK_WriteReg(R13, 0x20002000)  returns 0x00 (0000ms, 0430ms total)
T12D4 000:827 JLINK_WriteReg(R14, 0x20000001)  returns 0x00 (0000ms, 0430ms total)
T12D4 000:827 JLINK_WriteReg(R15, 0x20000188)  returns 0x00 (0000ms, 0430ms total)
T12D4 000:827 JLINK_WriteReg(XPSR, 0x01000000)  returns 0x00 (0000ms, 0430ms total)
T12D4 000:827 JLINK_WriteReg(MSP, 0x20002000)  returns 0x00 (0000ms, 0430ms total)
T12D4 000:827 JLINK_WriteReg(PSP, 0x20002000)  returns 0x00 (0000ms, 0430ms total)
T12D4 000:827 JLINK_WriteReg(CFBP, 0x00000000)  returns 0x00 (0000ms, 0430ms total)
T12D4 000:827 JLINK_SetBPEx(Addr = 0x20000000, Type = 0xFFFFFFF2)  returns 0x00000010 (0000ms, 0430ms total)
T12D4 000:827 JLINK_Go() (0003ms, 0433ms total)
T12D4 000:830 JLINK_IsHalted() -- CPU_ReadMem(2 bytes @ 0x20000000)  returns TRUE (0005ms, 0438ms total)
T12D4 000:835 JLINK_ReadReg(R15)  returns 0x20000000 (0000ms, 0433ms total)
T12D4 000:835 JLINK_ClrBPEx(BPHandle = 0x00000010)  returns 0x00 (0000ms, 0433ms total)
T12D4 000:835 JLINK_ReadReg(R0)  returns 0x00000001 (0000ms, 0433ms total)
T12D4 000:835 JLINK_WriteReg(R0, 0x0001CC00)  returns 0x00 (0000ms, 0433ms total)
T12D4 000:835 JLINK_WriteReg(R1, 0x00000400)  returns 0x00 (0000ms, 0433ms total)
T12D4 000:835 JLINK_WriteReg(R2, 0x000000FF)  returns 0x00 (0000ms, 0433ms total)
T12D4 000:835 JLINK_WriteReg(R3, 0x00000000)  returns 0x00 (0000ms, 0433ms total)
T12D4 000:835 JLINK_WriteReg(R4, 0x00000000)  returns 0x00 (0000ms, 0433ms total)
T12D4 000:835 JLINK_WriteReg(R5, 0x00000000)  returns 0x00 (0000ms, 0433ms total)
T12D4 000:835 JLINK_WriteReg(R6, 0x00000000)  returns 0x00 (0000ms, 0433ms total)
T12D4 000:835 JLINK_WriteReg(R7, 0x00000000)  returns 0x00 (0000ms, 0433ms total)
T12D4 000:835 JLINK_WriteReg(R8, 0x00000000)  returns 0x00 (0000ms, 0433ms total)
T12D4 000:835 JLINK_WriteReg(R9, 0x20000474)  returns 0x00 (0000ms, 0433ms total)
T12D4 000:835 JLINK_WriteReg(R10, 0x00000000)  returns 0x00 (0000ms, 0433ms total)
T12D4 000:835 JLINK_WriteReg(R11, 0x00000000)  returns 0x00 (0000ms, 0433ms total)
T12D4 000:835 JLINK_WriteReg(R12, 0x00000000)  returns 0x00 (0000ms, 0433ms total)
T12D4 000:835 JLINK_WriteReg(R13, 0x20002000)  returns 0x00 (0000ms, 0433ms total)
T12D4 000:835 JLINK_WriteReg(R14, 0x20000001)  returns 0x00 (0000ms, 0433ms total)
T12D4 000:835 JLINK_WriteReg(R15, 0x20000104)  returns 0x00 (0000ms, 0433ms total)
T12D4 000:835 JLINK_WriteReg(XPSR, 0x01000000)  returns 0x00 (0000ms, 0433ms total)
T12D4 000:835 JLINK_WriteReg(MSP, 0x20002000)  returns 0x00 (0000ms, 0433ms total)
T12D4 000:835 JLINK_WriteReg(PSP, 0x20002000)  returns 0x00 (0000ms, 0433ms total)
T12D4 000:835 JLINK_WriteReg(CFBP, 0x00000000)  returns 0x00 (0000ms, 0433ms total)
T12D4 000:835 JLINK_SetBPEx(Addr = 0x20000000, Type = 0xFFFFFFF2)  returns 0x00000011 (0000ms, 0433ms total)
T12D4 000:835 JLINK_Go() (0003ms, 0436ms total)
T12D4 000:838 JLINK_IsHalted()  returns FALSE (0001ms, 0437ms total)
T12D4 000:841 JLINK_IsHalted()  returns FALSE (0001ms, 0437ms total)
T12D4 000:850 JLINK_IsHalted()  returns FALSE (0001ms, 0437ms total)
T12D4 000:852 JLINK_IsHalted()  returns FALSE (0001ms, 0437ms total)
T12D4 000:854 JLINK_IsHalted()  returns FALSE (0001ms, 0437ms total)
T12D4 000:856 JLINK_IsHalted()  returns FALSE (0001ms, 0437ms total)
T12D4 000:869 JLINK_IsHalted() -- CPU_ReadMem(2 bytes @ 0x20000000)  returns TRUE (0005ms, 0441ms total)
T12D4 000:874 JLINK_ReadReg(R15)  returns 0x20000000 (0000ms, 0436ms total)
T12D4 000:874 JLINK_ClrBPEx(BPHandle = 0x00000011)  returns 0x00 (0000ms, 0436ms total)
T12D4 000:874 JLINK_ReadReg(R0)  returns 0x00000000 (0000ms, 0436ms total)
T12D4 000:874 JLINK_WriteReg(R0, 0x0001D000)  returns 0x00 (0000ms, 0436ms total)
T12D4 000:874 JLINK_WriteReg(R1, 0x00000400)  returns 0x00 (0000ms, 0436ms total)
T12D4 000:874 JLINK_WriteReg(R2, 0x000000FF)  returns 0x00 (0000ms, 0436ms total)
T12D4 000:874 JLINK_WriteReg(R3, 0x00000000)  returns 0x00 (0000ms, 0436ms total)
T12D4 000:874 JLINK_WriteReg(R4, 0x00000000)  returns 0x00 (0000ms, 0436ms total)
T12D4 000:874 JLINK_WriteReg(R5, 0x00000000)  returns 0x00 (0000ms, 0436ms total)
T12D4 000:874 JLINK_WriteReg(R6, 0x00000000)  returns 0x00 (0000ms, 0436ms total)
T12D4 000:874 JLINK_WriteReg(R7, 0x00000000)  returns 0x00 (0000ms, 0436ms total)
T12D4 000:874 JLINK_WriteReg(R8, 0x00000000)  returns 0x00 (0000ms, 0436ms total)
T12D4 000:874 JLINK_WriteReg(R9, 0x20000474)  returns 0x00 (0000ms, 0436ms total)
T12D4 000:874 JLINK_WriteReg(R10, 0x00000000)  returns 0x00 (0000ms, 0436ms total)
T12D4 000:874 JLINK_WriteReg(R11, 0x00000000)  returns 0x00 (0000ms, 0436ms total)
T12D4 000:874 JLINK_WriteReg(R12, 0x00000000)  returns 0x00 (0000ms, 0436ms total)
T12D4 000:874 JLINK_WriteReg(R13, 0x20002000)  returns 0x00 (0000ms, 0436ms total)
T12D4 000:874 JLINK_WriteReg(R14, 0x20000001)  returns 0x00 (0000ms, 0436ms total)
T12D4 000:874 JLINK_WriteReg(R15, 0x20000188)  returns 0x00 (0000ms, 0436ms total)
T12D4 000:874 JLINK_WriteReg(XPSR, 0x01000000)  returns 0x00 (0000ms, 0436ms total)
T12D4 000:874 JLINK_WriteReg(MSP, 0x20002000)  returns 0x00 (0000ms, 0436ms total)
T12D4 000:874 JLINK_WriteReg(PSP, 0x20002000)  returns 0x00 (0000ms, 0436ms total)
T12D4 000:874 JLINK_WriteReg(CFBP, 0x00000000)  returns 0x00 (0000ms, 0436ms total)
T12D4 000:874 JLINK_SetBPEx(Addr = 0x20000000, Type = 0xFFFFFFF2)  returns 0x00000012 (0000ms, 0436ms total)
T12D4 000:874 JLINK_Go() (0003ms, 0439ms total)
T12D4 000:877 JLINK_IsHalted() -- CPU_ReadMem(2 bytes @ 0x20000000)  returns TRUE (0005ms, 0444ms total)
T12D4 000:882 JLINK_ReadReg(R15)  returns 0x20000000 (0000ms, 0439ms total)
T12D4 000:882 JLINK_ClrBPEx(BPHandle = 0x00000012)  returns 0x00 (0000ms, 0439ms total)
T12D4 000:882 JLINK_ReadReg(R0)  returns 0x00000001 (0000ms, 0439ms total)
T12D4 000:882 JLINK_WriteReg(R0, 0x0001D000)  returns 0x00 (0000ms, 0439ms total)
T12D4 000:882 JLINK_WriteReg(R1, 0x00000400)  returns 0x00 (0000ms, 0439ms total)
T12D4 000:882 JLINK_WriteReg(R2, 0x000000FF)  returns 0x00 (0000ms, 0439ms total)
T12D4 000:882 JLINK_WriteReg(R3, 0x00000000)  returns 0x00 (0000ms, 0439ms total)
T12D4 000:882 JLINK_WriteReg(R4, 0x00000000)  returns 0x00 (0000ms, 0439ms total)
T12D4 000:882 JLINK_WriteReg(R5, 0x00000000)  returns 0x00 (0000ms, 0439ms total)
T12D4 000:882 JLINK_WriteReg(R6, 0x00000000)  returns 0x00 (0000ms, 0439ms total)
T12D4 000:882 JLINK_WriteReg(R7, 0x00000000)  returns 0x00 (0000ms, 0439ms total)
T12D4 000:882 JLINK_WriteReg(R8, 0x00000000)  returns 0x00 (0000ms, 0439ms total)
T12D4 000:882 JLINK_WriteReg(R9, 0x20000474)  returns 0x00 (0000ms, 0439ms total)
T12D4 000:882 JLINK_WriteReg(R10, 0x00000000)  returns 0x00 (0000ms, 0439ms total)
T12D4 000:882 JLINK_WriteReg(R11, 0x00000000)  returns 0x00 (0000ms, 0439ms total)
T12D4 000:882 JLINK_WriteReg(R12, 0x00000000)  returns 0x00 (0000ms, 0439ms total)
T12D4 000:882 JLINK_WriteReg(R13, 0x20002000)  returns 0x00 (0000ms, 0439ms total)
T12D4 000:882 JLINK_WriteReg(R14, 0x20000001)  returns 0x00 (0000ms, 0439ms total)
T12D4 000:882 JLINK_WriteReg(R15, 0x20000104)  returns 0x00 (0000ms, 0439ms total)
T12D4 000:882 JLINK_WriteReg(XPSR, 0x01000000)  returns 0x00 (0000ms, 0439ms total)
T12D4 000:882 JLINK_WriteReg(MSP, 0x20002000)  returns 0x00 (0000ms, 0439ms total)
T12D4 000:882 JLINK_WriteReg(PSP, 0x20002000)  returns 0x00 (0000ms, 0439ms total)
T12D4 000:882 JLINK_WriteReg(CFBP, 0x00000000)  returns 0x00 (0000ms, 0439ms total)
T12D4 000:882 JLINK_SetBPEx(Addr = 0x20000000, Type = 0xFFFFFFF2)  returns 0x00000013 (0000ms, 0439ms total)
T12D4 000:882 JLINK_Go() (0002ms, 0441ms total)
T12D4 000:884 JLINK_IsHalted()  returns FALSE (0001ms, 0442ms total)
T12D4 000:887 JLINK_IsHalted()  returns FALSE (0001ms, 0442ms total)
T12D4 000:889 JLINK_IsHalted()  returns FALSE (0001ms, 0442ms total)
T12D4 000:895 JLINK_IsHalted()  returns FALSE (0001ms, 0442ms total)
T12D4 000:897 JLINK_IsHalted()  returns FALSE (0001ms, 0442ms total)
T12D4 000:899 JLINK_IsHalted()  returns FALSE (0001ms, 0442ms total)
T12D4 000:901 JLINK_IsHalted()  returns FALSE (0001ms, 0442ms total)
T12D4 000:903 JLINK_IsHalted()  returns FALSE (0001ms, 0442ms total)
T12D4 000:912 JLINK_IsHalted() -- CPU_ReadMem(2 bytes @ 0x20000000)  returns TRUE (0005ms, 0446ms total)
